Time (s),v_in (V),v_out (V)
-0.0010184999999999999,-0.11866857946895552,-0.008026932989560864
-0.0010182499999999998,-0.11396985697969464,-0.010069997845342482
-0.001018,-0.11229174180496042,-0.009388976226749127
-0.00101775,-0.11262736483990665,-0.007686422180264651
-0.0010175,-0.1112848727001182,-0.008026932989560864
-0.00101725,-0.10960675752538244,-0.008367443798857854
-0.001017,-0.10692177324580524,-0.009388976226748818
-0.0010167499999999999,-0.10524365807106947,-0.007345911370967198
-0.0010164999999999998,-0.1052436580710678,-0.00802693298956133
-0.00101625,-0.1015518046866525,-0.009048465417451364
-0.001016,-0.09853119737212646,-0.009388976226748818
-0.00101575,-0.09920244344202075,-0.008707954608154841
-0.0010155,-0.0988668204070736,-0.007686422180263877
-0.0010152499999999999,-0.09450372095276063,-0.007345911370966888
-0.0010149999999999998,-0.09450372095276002,-0.0070054005616699
-0.00101475,-0.09316122881297265,-0.0070054005616699
-0.0010145,-0.09114749060329004,-0.006324378943076234
-0.00101425,-0.08913375239360621,-0.007345911370966888
-0.001014,-0.0871200141839233,-0.006324378943075924
-0.00101375,-0.0851062759742404,-0.007686422180263877
-0.0010134999999999999,-0.0830925377645575,-0.007005400561669281
-0.0010132499999999998,-0.08309253776455673,-0.005643357324481948
-0.001013,-0.0814144225898225,-0.005643357324481948
-0.00101275,-0.08107879955487474,-0.006324378943075614
-0.0010125,-0.07906506134519169,-0.0066648897523729125
-0.00101225,-0.07772256920540307,-0.0070054005616699
-0.0010119999999999999,-0.07470196189087872,-0.0070054005616699
-0.0010117499999999998,-0.07369509278603727,-0.00598386813377878
-0.0010114999999999998,-0.07369509278603589,-0.005643357324481329
-0.00101125,-0.07067448547151427,-0.004281314087294615
-0.001011,-0.06698263208709423,-0.003600292468700019
-0.00101075,-0.06496889387741132,-0.004621824896590984
-0.0010105,-0.06362640173762273,-0.004621824896590984
-0.0010102499999999999,-0.06329077870267497,-0.004621824896591139
-0.0010099999999999998,-0.06194828656288681,-0.004962335705888281
-0.00100975,-0.06161266352793997,-0.0056433573244816385
-0.0010095,-0.060605794423098824,-0.005302846515185115
-0.00100925,-0.05993454835320407,-0.0025787600408090547
-0.001009,-0.057920810143521156,-0.003600292468700019
-0.0010087499999999999,-0.055571448898891096,-0.004281314087293995
-0.0010084999999999998,-0.05355771068920773,-0.0053028465151843404
-0.0010082499999999998,-0.05255084158436582,-0.003940803277997317
-0.001008,-0.05053710337468474,-0.004621824896590674
-0.00100775,-0.04953023426984238,-0.004962335705887971
-0.0010075,-0.047516496060159466,-0.003259781659403031
-0.00100725,-0.045838380885423705,-0.003259781659403031
-0.0010069999999999999,-0.04416026571068796,-0.003600292468700019
-0.0010067499999999998,-0.041475281431110594,-0.0029192708501055782
-0.0010065,-0.04113965839616375,-0.0018977384222155429
-0.00100625,-0.0381190510816406,-0.002578760040808745
-0.001006,-0.036776558941850626,-0.0022382492315120668
-0.00100575,-0.036776558941850626,-0.003259781659403031
-0.0010054999999999999,-0.03576968983700918,-0.003940803277997007
-0.0010052499999999999,-0.034427197697219344,-0.0032597816594028763
-0.0010049999999999998,-0.0317422134176429,-0.0029192708501063524
-0.00100475,-0.03073534431280236,-0.0036002924686997094
-0.0010045,-0.0293928521730133,-0.003259781659403031
-0.00100425,-0.027714736998277544,-0.0008762059943241141
-0.001004,-0.02670786789343609,-0.000535695185027126
-0.0010037499999999999,-0.023351637543964576,-0.0022382492315120668
-0.0010034999999999998,-0.021002276299333603,-0.0015572276129179356
-0.00100325,-0.018988538089652524,-0.001216716803621257
-0.001003,-0.01965978415954561,-0.0018977384222147687
-0.00100275,-0.0163035538100744,-0.0015572276129180904
-0.0010025,-0.01361856953049719,-0.0008762059943241141
-0.0010022499999999999,-0.01361856953049719,-0.000535695185027126
-0.0010019999999999999,-0.011604831320814435,-0.0005356951850275906
-0.0010017499999999998,-0.011940454355761129,-0.0015572276129177808
-0.0010015,-0.011269208285867437,-0.0008762059943244237
-0.00100125,-0.00824860097134277,-0.0018977384222150784
-0.001001,-0.004892370621871258,0.0004858372428638384
-0.00100075,-0.0035498784820826527,0.001847880480051791
-0.0010004999999999999,-0.00287863241218835,-0.0012167168036211022
-0.0010002499999999998,-0.0018717633073467438,-0.00019518437572967333
-0.001,-0.0015361402723998979,0.0008263480521603619
-0.00099975,0.0008132209722292454,0.0008263480521608265
-0.0009995,0.0031625822168603723,0.0011668588614578146
-0.00099925,0.006518812566331885,0.001847880480051791
-0.0009989999999999999,0.0075256816711733385,0.0025289020986457673
-0.0009987499999999999,0.00853255077601525,0.0015073696707549576
-0.0009984999999999998,0.00953941988085762,0.0018478804800510166
-0.00099825,0.012560027195379233,0.0001453264335676246
-0.000998,0.013902519335169212,0.0011668588614578146
-0.00099775,0.014909388440010666,0.0008263480521608265
-0.0009975,0.016923126649693573,0.0011668588614578146
-0.0009972499999999999,0.017929995754535025,0.001847880480051791
-0.0009969999999999998,0.01759437271958864,0.0018478804800514813
-0.00099675,0.019272487894322867,0.0011668588614581242
-0.0009965,0.02262871824379362,0.0008263480521609813
-0.00099625,0.0236355873486366,0.0008263480521608265
-0.000996,0.025313702523372356,0.0011668588614578146
-0.0009957499999999999,0.02665619466316096,0.001847880480051791
-0.0009954999999999999,0.026656194663162183,0.002188391289349398
-0.0009952499999999998,0.029341178942739087,0.0035504345265367316
-0.000995,0.031354917152420156,0.0035504345265367316
-0.00099475,0.03403990143199828,0.0028694129079427553
-0.0009945,0.034711147501892595,0.0028694129079427553
-0.00099425,0.03605363964168119,0.0025289020986457673
-0.0009939999999999999,0.037396131781469805,0.002188391289348779
-0.0009937499999999998,0.03840300088631217,0.003550434526536577
-0.0009935,0.04041673909599325,0.003209923717239898
-0.00099325,0.03974549302610017,0.003550434526536577
-0.000993,0.043101723375571374,0.0042314561451307076
-0.00099275,0.045451084620201435,0.0042314561451307076
-0.0009925,0.048136068899778645,0.0038909453358337196
-0.0009922499999999999,0.05014980710946276,0.0025289020986457673
-0.0009919999999999998,0.05283479138903906,0.0025289020986466963
-0.00099175,0.05350603745893276,0.004571966954426767
-0.0009915,0.053506037458933065,0.005934010191615649
-0.00099125,0.05518415263366881,0.004912477763724684
-0.000991,0.05719789084335172,0.0042314561451307076
-0.0009907499999999999,0.06021849815787608,0.0042314561451307076
-0.0009904999999999998,0.060554121192823385,0.004571966954427851
-0.00099025,0.06088974422777023,0.00491247776372453
-0.00099,0.06290348243745238,0.004571966954427851
-0.00098975,0.06458159761218905,0.004912477763724684
-0.0009895,0.06693095885681911,0.00559349938231866
-0.00098925,0.06894469706650203,0.005934010191615649
-0.0009889999999999999,0.07028718920629047,0.005252988573022137
-0.0009887499999999998,0.06995156617134439,0.006274521000912636
-0.0009885,0.07196530438102547,0.006274521000912636
-0.00098825,0.07465028866060237,0.006615031810209469
-0.000988,0.07565715776544504,0.007977075047397577
-0.00098775,0.07767089597512795,0.006615031810209625
-0.0009874999999999999,0.07968463418481087,0.005934010191615649
-0.0009872499999999998,0.08102712632459977,0.006955542619506148
-0.0009869999999999998,0.08169837239449468,0.005934010191616114
-0.00098675,0.08371211060417576,0.006955542619506148
-0.0009865,0.08337648756922952,0.007636564238100589
-0.00098625,0.08639709488375388,0.0072960534288036005
-0.000986,0.08975332523322539,0.0072960534288036005
-0.0009857499999999999,0.08874645612838394,0.007977075047397577
-0.0009854999999999998,0.09176706344290815,0.007977075047397423
-0.00098525,0.0914314404079613,0.007636564238100744
-0.000985,0.09411642468753714,0.007636564238100589
-0.00098475,0.09713703200206272,0.007636564238100589
-0.0009845,0.09780827807195702,0.0072960534288036005
-0.0009842499999999999,0.10049326235153423,0.008658096665991554
-0.0009839999999999998,0.09881514717679955,0.008658096665991244
-0.0009837499999999998,0.1011645084214287,0.007977075047397577
-0.0009835,0.10150013145637554,0.007977075047397577
-0.00098325,0.10284262359616429,0.009679629093882518
-0.000983,0.10653447698058297,0.008658096665991554
-0.00098275,0.10888383822521301,0.0072960534288036005
-0.0009824999999999999,0.11022633036500162,0.008658096665991554
-0.0009822499999999998,0.11324693767952553,0.009679629093882673
-0.000982,0.11224006857468499,0.010020139903179352
-0.00098175,0.11425380678436652,0.009679629093882673
-0.0009815,0.11593192195910319,0.009679629093882518
-0.00098125,0.11895252927362755,0.00933911828458553
-0.0009809999999999999,0.12096626748331046,0.00933911828458553
-0.0009807499999999999,0.12197313658815252,0.010020139903179506
-0.0009804999999999998,0.12331562872794113,0.01002013990317966
-0.00098025,0.12465812086772851,0.010360650712476339
-0.00098,0.12700748211235918,0.008998607475288542
-0.00097975,0.13036371246183068,0.009679629093882518
-0.0009795,0.12969246639193638,0.010701161521773483
-0.0009792499999999999,0.1323774506715136,0.00933911828458553
-0.0009789999999999998,0.1327130737064615,0.01104167233107047
-0.00097875,0.13439118888119575,0.01104167233107047
-0.0009785,0.1360693040559315,0.010701161521773637
-0.00097825,0.13774741923066802,0.010701161521773483
-0.000978,0.13808304226561516,0.010360650712476493
-0.0009777499999999999,0.14009678047529808,0.010360650712476493
-0.0009774999999999999,0.14244614171992842,0.011382183140366993
-0.0009772499999999998,0.1431173877898232,0.010360650712476648
-0.000977,0.14479550296455743,0.010701161521773328
-0.00097675,0.14479550296455818,0.011722693949664447
-0.0009765,0.1468092411742411,0.011722693949664447
-0.00097625,0.1494942254538183,0.012063204758961435
-0.000976,0.15251483276834266,0.010701161521773483
-0.00097575,0.1538573249081316,0.012403715568258422
-0.0009755000000000001,0.15452857097802528,0.012403715568258422
-0.0009752500000000001,0.15654230918770756,0.011382183140367923
-0.0009750000000000001,0.15822042436244424,0.012744226377555411
-0.00097475,0.15989853953718,0.013425247996149386
-0.0009745,0.16224790078181006,0.013084737186852399
-0.00097425,0.16493288506138726,0.010020139903181364
-0.0009739999999999999,0.1649328850613874,0.014106269614742898
-0.0009737500000000001,0.16526850809633428,0.013084737186852864
-0.0009735000000000001,0.16728224630601732,0.013765758805446376
-0.00097325,0.16828911541085878,0.014106269614743363
-0.000973,0.17063847665548884,0.012744226377555411
-0.00097275,0.17063847665548884,0.013084737186852399
-0.0009725,0.1716453457603315,0.014106269614743828
-0.0009722500000000001,0.17433033003990628,0.015127802042633863
-0.0009720000000000001,0.17634406824958948,0.013765758805446995
-0.0009717500000000001,0.17735093735443186,0.013425247996149386
-0.0009715,0.17902905252916762,0.013084737186852399
-0.00097125,0.17970029859906192,0.013765758805446376
-0.0009710000000000001,0.18272090591358628,0.014106269614743363
-0.00097075,0.18339215198348058,0.01444678042404035
-0.0009705,0.18473464412326918,0.014106269614743363
-0.00097025,0.1867483823329521,0.01444678042404035
-0.00097,0.18909774357758216,0.01478729123333734
-0.00096975,0.19111148178726506,0.01444678042404035
-0.0009695,0.19245397392705366,0.01444678042404035
-0.0009692500000000001,0.19379646606684228,0.015808823661228304
-0.000969,0.19480333517168372,0.016149334470525294
-0.00096875,0.19681707338136664,0.016149334470525294
-0.0009685000000000001,0.19547458124157802,0.015468312851931315
-0.00096825,0.19715269641631378,0.015468312851931315
-0.000968,0.199837680695891,0.01444678042404035
-0.0009677500000000001,0.2018514189055739,0.015468312851931315
-0.0009675,0.20420078015020396,0.015127802042634328
-0.00096725,0.20655014139483402,0.015808823661228304
-0.000967,0.20755701049967548,0.016149334470525294
-0.00096675,0.20822825656956978,0.01648984527982228
-0.0009665,0.20990637174430554,0.016149334470525294
-0.00096625,0.21091324084914698,0.017851888517010233
-0.0009660000000000001,0.21057761781419984,0.01648984527982228
-0.00096575,0.21326260209377704,0.01683035608911927
-0.0009655,0.2149407172685128,0.019213931754198187
-0.0009652500000000001,0.21762570154809,0.017170866898416258
-0.000965,0.22131755493250868,0.01683035608911927
-0.00096475,0.22165317796745582,0.017170866898416258
-0.0009645000000000001,0.22198880100240298,0.017851888517010233
-0.00096425,0.22366691617713874,0.019213931754198187
-0.000964,0.22534503135187448,0.018532910135604208
-0.00096375,0.22702314652661024,0.018873420944901197
-0.0009635000000000001,0.2280300156314517,0.017851888517010233
-0.00096325,0.22970813080618746,0.018873420944901197
-0.000963,0.2307149999110289,0.017851888517010233
-0.0009627500000000001,0.23474247633039472,0.018873420944901197
-0.0009625,0.23709183757502478,0.01989495337279216
-0.00096225,0.23541372240028902,0.018873420944901197
-0.0009620000000000001,0.23642059150513048,0.018532910135604208
-0.00096175,0.23843432971481338,0.018192399326307222
-0.0009615,0.24078369095944344,0.018532910135604208
-0.0009612500000000001,0.24279742916912636,0.018532910135604208
-0.000961,0.2431330522040735,0.019213931754198187
-0.00096075,0.24481116737880926,0.019554442563495172
-0.0009605,0.24749615165838648,0.018873420944901197
-0.0009602500000000001,0.24917426683312222,0.019213931754198187
-0.00096,0.25085238200785803,0.022619039847168065
-0.00095975,0.25185925111269947,0.02227852903787108
-0.0009595000000000001,0.2538729893223824,0.020916485800683126
-0.00095925,0.2542086123573295,0.019213931754198187
-0.000959,0.2548798584272238,0.01989495337279216
-0.0009587500000000001,0.2562223505670124,0.020916485800683126
-0.0009585,0.2579004657417482,0.021256996609980115
-0.00095825,0.261927942161114,0.02193801822857409
-0.000958,0.2625991882310083,0.021256996609980115
-0.00095775,0.26360605733584974,0.020916485800683126
-0.0009575,0.26427730340574407,0.019554442563495172
-0.00095725,0.26427730340574407,0.01989495337279216
-0.0009570000000000001,0.26595541858047983,0.020575974991386137
-0.00095675,0.26729791072026843,0.019554442563495172
-0.0009565,0.2699828949998456,0.018192399326307222
-0.0009562500000000001,0.26964727196489846,0.02193801822857409
-0.000956,0.2716610101745814,0.021256996609980115
-0.00095575,0.27468161748910574,0.020575974991386137
-0.0009555000000000001,0.2777022248036301,0.021256996609980115
-0.00095525,0.28072283211815446,0.022619039847168065
-0.000955,0.2810584551531016,0.02193801822857409
-0.00095475,0.28441468550257315,0.022619039847168065
-0.0009545,0.286428423712256,0.022959550656465055
-0.00095425,0.28709966978215035,0.022619039847168065
-0.000954,0.2867640467472032,0.02193801822857409
-0.0009537500000000001,0.2881065388869918,0.02364057227505903
-0.0009535,0.28911340799183327,0.02398108308435602
-0.00095325,0.29079152316656903,0.023300061465762044
-0.0009530000000000001,0.29213401530635763,0.02364057227505903
-0.00095275,0.2941477535160405,0.024321593893653008
-0.0009525,0.2964971147606706,0.02364057227505903
-0.0009522500000000001,0.29683273779561775,0.02364057227505903
-0.000952,0.2988464760053006,0.024321593893653008
-0.00095175,0.3001889681450892,0.02398108308435602
-0.0009515,0.30086021421498355,0.02398108308435602
-0.0009512500000000001,0.301867083319825,0.023300061465762044
-0.000951,0.30421644456445507,0.02398108308435602
-0.00095075,0.3075726749139266,0.024321593893653008
-0.0009505000000000001,0.3079082979488737,0.024321593893653008
-0.00095025,0.3099220361585566,0.024662104702949994
-0.00095,0.31193577436823955,0.02398108308435602
-0.0009497500000000001,0.3122713974031867,0.023300061465762044
-0.0009495,0.3116001513332924,0.02364057227505903
-0.00094925,0.3126070204381338,0.02398108308435602
-0.0009490000000000001,0.31596325078760534,0.026024147940137948
-0.00094875,0.3176413659623411,0.02568363713084096
-0.0009485,0.31697011989244683,0.02568363713084096
-0.00094825,0.3203263502419183,0.025343126321543973
-0.0009480000000000001,0.32334695755644266,0.026024147940137948
-0.00094775,0.324018203626337,0.0273861911773259
-0.0009475,0.3260319418360199,0.024321593893653008
-0.0009472500000000001,0.3287169261155971,0.023300061465762044
-0.000947,0.3300594182553857,0.025002615512246983
-0.00094675,0.33207315646506863,0.02568363713084096
-0.0009465000000000001,0.33308002556991007,0.02568363713084096
-0.00094625,0.33341564860485723,0.026024147940137948
-0.000946,0.3354293868145401,0.025343126321543973
-0.00094575,0.3361006328844344,0.02568363713084096
-0.0009455,0.3377787480591702,0.026024147940137948
-0.00094525,0.3387856171640116,0.027045680368028912
-0.000945,0.3404637323387474,0.026705169558731923
-0.0009447500000000001,0.3438199626882189,0.026705169558731923
-0.0009445,0.34214184751348314,0.026705169558731923
-0.00094425,0.3424774705484303,0.026364658749434937
-0.0009440000000000001,0.34616932393284894,0.027045680368028912
-0.00094375,0.3478474391075847,0.027726701986622887
-0.0009435,0.3501968003522148,0.0273861911773259
-0.0009432500000000001,0.3522105385618977,0.027045680368028912
-0.000943,0.35321740766673915,0.026705169558731923
-0.00094275,0.352881784631792,0.026364658749434937
-0.0009425,0.3535530307016863,0.027726701986622887
-0.00094225,0.3562380149812635,0.027726701986622887
-0.000942,0.3562380149812635,0.028067212795919876
-0.00094175,0.35858737622589354,0.02874823441451385
-0.0009415000000000001,0.3609367374705236,0.028067212795919876
-0.00094125,0.36194360657536506,0.027726701986622887
-0.000941,0.3626148526452594,0.0273861911773259
-0.0009407500000000001,0.36462859085494226,0.027726701986622887
-0.0009405,0.366306706029678,0.0273861911773259
-0.00094025,0.36832044423936094,0.027045680368028912
-0.0009400000000000001,0.37033418244904387,0.028407723605216866
-0.00093975,0.37100542851893814,0.028407723605216866
-0.0009395,0.3736904127985154,0.030110277651701805
-0.00093925,0.3740260358334625,0.030110277651701805
-0.0009390000000000001,0.37704664314798686,0.02908874522381084
-0.00093875,0.37671102011303975,0.026364658749434937
-0.0009385,0.37939600439261695,0.02942925603310783
-0.0009382500000000001,0.3797316274275641,0.02908874522381084
-0.000938,0.3804028734974584,0.02908874522381084
-0.00093775,0.38275223474208847,0.02942925603310783
-0.0009375000000000001,0.38443034991682423,0.02908874522381084
-0.00093725,0.38577284205661283,0.029769766842404816
-0.000937,0.3877865802662957,0.030450788460998794
-0.0009367500000000001,0.38946469544103146,0.03079129927029578
-0.0009365,0.3891290724060843,0.02908874522381084
-0.00093625,0.39214967972060866,0.03079129927029578
-0.000936,0.39315654882545015,0.03113181007959277
-0.0009357500000000001,0.3941634179302916,0.03079129927029578
-0.0009355,0.39584153310502734,0.03113181007959277
-0.00093525,0.39785527131471027,0.03113181007959277
-0.0009350000000000001,0.39919776345449887,0.03249385331678072
-0.00093475,0.4012115016641818,0.031812831698186744
-0.0009345,0.4025539938039704,0.03147232088888976
-0.0009342500000000001,0.40322523987386466,0.03283436412607771
-0.000934,0.40456773201365326,0.03249385331678072
-0.00093375,0.4052389780835476,0.03249385331678072
-0.0009335,0.40825958539807194,0.03249385331678072
-0.00093325,0.40825958539807194,0.03283436412607771
-0.000933,0.4112801927125963,0.03215334250748374
-0.00093275,0.4139651769921735,0.031812831698186744
-0.0009325000000000001,0.41329393092227923,0.031812831698186744
-0.00093225,0.4153076691319621,0.03079129927029578
-0.000932,0.4163145382368036,0.03113181007959277
-0.0009317500000000001,0.41698578430669786,0.03215334250748374
-0.0009315,0.41832827644648646,0.03249385331678072
-0.00093125,0.42067763769111655,0.03283436412607771
-0.0009310000000000001,0.4230269989357466,0.03215334250748374
-0.00093075,0.42403386804058807,0.034196407363265666
-0.0009305,0.42470511411048234,0.03249385331678072
-0.00093025,0.42671885232016527,0.03215334250748374
-0.00093,0.4277257214250067,0.03487742898185964
