Time (s),v_in (V),v_out (V)
-0.0010184999999999999,-0.11833295643400837,-0.06761632461653379
-0.0010182499999999998,-0.11598359518937694,-0.0662542813793452
-0.001018,-0.11296298787485533,-0.06489223814215851
-0.00101775,-0.11229174180495996,-0.06353019490497055
-0.0010175,-0.11094924966517104,-0.06353019490496993
-0.00101725,-0.10859988842054098,-0.06353019490496993
-0.001017,-0.10759301931569953,-0.06080610843059402
-0.0010167499999999999,-0.10692177324580386,-0.061146619239892404
-0.0010164999999999998,-0.10390116593128042,-0.06421121652356297
-0.00101625,-0.10289429682643987,-0.0621681516677829
-0.001016,-0.10255867379149226,-0.058082021956218116
-0.00101575,-0.10188742772159796,-0.058082021956218116
-0.0010155,-0.1002093125468622,-0.058082021956218116
-0.0010152499999999999,-0.1002093125468622,-0.05910355438410908
-0.0010149999999999998,-0.09685308219738947,-0.05808202195621734
-0.00101475,-0.0941680979178147,-0.05637946790973396
-0.0010145,-0.09248998274307849,-0.054676913863249015
-0.00101425,-0.09081186756834198,-0.052974359816763295
-0.001014,-0.08913375239360621,-0.05127180577027836
-0.00101375,-0.08812688328876477,-0.05059078415168438
-0.0010134999999999999,-0.08611314507908124,-0.049569251723792486
-0.0010132499999999998,-0.08477065293929249,-0.04752618686801195
-0.001013,-0.08309253776455826,-0.04854771929590199
-0.00101275,-0.0810787995548755,-0.04752618686801195
-0.0010125,-0.07906506134519169,-0.04548312201222956
-0.00101225,-0.07805819224035022,-0.043780567965744616
-0.0010119999999999999,-0.07671570010056163,-0.04480210039363558
-0.0010117499999999998,-0.07537320796077332,-0.044121078775041296
-0.0010114999999999998,-0.07604445403066701,-0.043440057156447165
-0.00101125,-0.07537320796077332,-0.04241852472855713
-0.001011,-0.0726882236811958,-0.04003494906347775
-0.00101075,-0.07033886243656574,-0.04037545987277474
-0.0010105,-0.06866074726183,-0.03935392744488377
-0.0010102499999999999,-0.06664700905214663,-0.03799188420769567
-0.0010099999999999998,-0.06564013994730455,-0.03765137339839883
-0.00100975,-0.06329077870267664,-0.03765137339839883
-0.0010095,-0.060941417458046584,-0.03594881935191467
-0.00100925,-0.058927679248362605,-0.03458677611472594
-0.001009,-0.056913941038679694,-0.033905754496131965
-0.0010087499999999999,-0.054228956759102484,-0.032884222068241
-0.0010084999999999998,-0.05255084158436735,-0.030160135593865094
-0.0010082499999999998,-0.053893333724155335,-0.030160135593863546
-0.001008,-0.053893333724155335,-0.02675502750089676
-0.00100775,-0.05221521854941959,-0.024371451835816293
-0.0010075,-0.050201480339736676,-0.03084115721245907
-0.00100725,-0.04919461123489523,-0.031181668021756058
-0.0010069999999999999,-0.045502757850476555,-0.027776559928786176
-0.0010067499999999998,-0.044831511780581645,-0.026074005882300615
-0.0010065,-0.043489019640794255,-0.024711962645113904
-0.00100625,-0.04147528143111166,-0.02437145183581645
-0.001006,-0.037783428046692075,-0.02369043021722232
-0.00100575,-0.036776558941850626,-0.023009408598628343
-0.0010054999999999999,-0.036776558941850626,-0.0213068545521434
-0.0010052499999999999,-0.03543406680206064,-0.021647365361439307
-0.0010049999999999998,-0.03241345948753735,-0.019263789696361472
-0.00100475,-0.03174221341764366,-0.019263789696361472
-0.0010045,-0.031070967347749053,-0.018582768077767497
-0.00100425,-0.0293928521730133,-0.017901746459173522
-0.001004,-0.027714736998277544,-0.017561235649876532
-0.0010037499999999999,-0.025700998788594633,-0.015858681603391593
-0.0010034999999999998,-0.02502975271869957,-0.01517765998479746
-0.00100325,-0.02335163754396534,-0.014837149175500781
-0.001003,-0.021337899334282585,-0.011772551891829127
-0.00100275,-0.020666653264387366,-0.011432041082530747
-0.0010025,-0.017981668984810156,-0.011091530273233757
-0.0010022499999999999,-0.017646045949863003,-0.011091530273233757
-0.0010019999999999999,-0.014289815600390424,-0.010751019463936305
-0.0010017499999999998,-0.01194045435576067,-0.009729487036044721
-0.0010015,-0.010262339181026441,-0.007345911370967972
-0.00100125,-0.009591093111131375,-0.005643357324481948
-0.001001,-0.008584224006289921,-0.005983868133778936
-0.00100075,-0.007577354901448468,-0.005983868133778936
-0.0010004999999999999,-0.004556747586924106,-0.00530284651518496
-0.0010002499999999998,-0.0038855015170287358,-0.003940803277997317
-0.001,-0.0015361402724008134,-0.004621824896590674
-0.00099975,-0.0008648942025057479,-0.0005356951850289835
-0.0009995,0.0008132209722303135,-0.00019518437573013786
-0.00099925,0.0011488440071774648,-0.006324378943075924
-0.0009989999999999999,0.004169451321701826,-0.0025787600408090547
-0.0009987499999999999,0.006854435601279647,0.002188391289348624
-0.0009984999999999998,0.008196927741067794,0.0018478804800521006
-0.00099825,0.00853255077601464,0.0025289020986454577
-0.000998,0.011553158090539153,0.0025289020986457673
-0.00099775,0.013566896300222061,0.00559349938231866
-0.0009975,0.015580634509904968,0.006955542619506613
-0.0009972499999999999,0.015245011474957817,0.0072960534288036005
-0.0009969999999999998,0.017929995754536857,0.008998607475289161
-0.00099675,0.02195747217389901,0.010360650712475874
-0.0009965,0.023299964313688835,0.011722693949663828
-0.00099625,0.02195747217390084,0.013425247996149386
-0.000996,0.022964341278742296,0.011382183140367458
-0.0009957499999999999,0.0236355873486366,0.012403715568258422
-0.0009954999999999999,0.024978079488425203,0.011722693949664912
-0.0009952499999999998,0.024978079488426577,0.012744226377556496
-0.000995,0.027998686802948192,0.015127802042633243
-0.00099475,0.02934117894273817,0.015127802042634328
-0.0009945,0.032697409292209684,0.015468312851931315
-0.00099425,0.035046770536839744,0.016149334470525294
-0.0009939999999999999,0.037396131781469805,0.02023546418208915
-0.0009937499999999998,0.038738623921259624,0.02125699660997996
-0.0009935,0.04142360820083439,0.020916485800683282
-0.00099325,0.04175923123578261,0.02330006146576096
-0.000993,0.043101723375571374,0.026364658749434937
-0.00099275,0.04477983855030712,0.024662104702949994
-0.0009925,0.04712919979493718,0.025343126321543973
-0.0009922499999999999,0.049814184074513934,0.025683637130841423
-0.0009919999999999998,0.04880731496967325,0.026705169558731458
-0.00099175,0.04947856103956694,0.025683637130841423
-0.0009915,0.0524991683540916,0.027726701986622887
-0.00099125,0.05484852959872166,0.030450788460998794
-0.000991,0.05551977566861596,0.03113181007959277
-0.0009907499999999999,0.056191021738510274,0.03283436412607771
-0.0009904999999999998,0.05820475994819378,0.038623047884123414
-0.00099025,0.05954725208798117,0.03181283169818984
-0.00099,0.06223223636755777,0.032834364126077244
-0.00098975,0.06458159761218905,0.03215334250748374
-0.0009895,0.06323910547240046,0.0331748749353747
-0.00098925,0.06525284368208335,0.03453691817256265
-0.0009889999999999999,0.06793782796166102,0.037261004646938246
-0.0009887499999999998,0.06894469706650233,0.036579983028345045
-0.0009885,0.06961594313639602,0.03760151545623508
-0.00098825,0.07129405831113131,0.03828253707482921
-0.000988,0.07263655045092068,0.03828253707482952
-0.00098775,0.07431466562565645,0.03964458031201747
-0.0009874999999999999,0.07599278080039219,0.041347134358502416
-0.0009872499999999998,0.07867776507997032,0.04168764516780002
-0.0009869999999999998,0.08069150328965292,0.04304968840498813
-0.00098675,0.0820339954294403,0.04475224245147152
-0.0009865,0.08337648756922952,0.04509275326076928
-0.00098625,0.08304086453428237,0.04509275326076928
-0.000986,0.0877395870235425,0.04713581811655121
-0.0009857499999999999,0.09008894826817256,0.04713581811655121
-0.0009854999999999998,0.09143144040796176,0.04883837216303708
-0.00098525,0.09277393254774914,0.05088143701881715
-0.000985,0.09445204772248475,0.051221947828114914
-0.00098475,0.09344517861764406,0.051902969446709045
-0.0009845,0.09478767075743266,0.05224348025600603
-0.0009842499999999999,0.09478767075743266,0.052583991065303023
-0.0009839999999999998,0.09713703200206333,0.05394603430249175
-0.0009837499999999998,0.0984795241418524,0.05564858834897607
-0.0009835,0.10082888538648033,0.05598909915827275
-0.00098325,0.1055276078757415,0.05667012077686688
-0.000983,0.1048563618058472,0.05735114239546085
-0.00098275,0.10619885394563582,0.05667012077686688
-0.0009824999999999999,0.10720572305047726,0.059053696441945795
-0.0009822499999999998,0.1095550842951087,0.058032164014052666
-0.000982,0.11257569160963031,0.05326501268389916
-0.00098175,0.11391818374941967,0.058032164014052666
-0.0009815,0.11492505285426174,0.06416135858140062
-0.00098125,0.11660316802899749,0.0648423801999946
-0.0009809999999999999,0.1179456601687861,0.06552340181858857
-0.0009807499999999999,0.12163751355320446,0.06518289100929267
-0.0009804999999999998,0.12096626748331046,0.06756646667436987
-0.00098025,0.12096626748331046,0.06620442343718318
-0.00098,0.12398687479783482,0.06722595586507352
-0.00097975,0.12499374390267627,0.06995004233944942
-0.0009795,0.12700748211235918,0.06995004233944942
-0.0009792499999999999,0.12868559728709492,0.07063106395804339
-0.0009789999999999998,0.12969246639193713,0.07063106395804385
-0.00097875,0.1313705815666714,0.0716525963859339
-0.0009785,0.13271307370646013,0.07233361800452803
-0.00097825,0.13405556584624934,0.0733551504324193
-0.000978,0.13539805798603796,0.07471719366960725
-0.0009777499999999999,0.13741179619572086,0.0764197477160922
-0.0009774999999999999,0.14043240351024566,0.07744128014398347
-0.0009772499999999998,0.1414392726150873,0.07812230176257698
-0.000977,0.14278176475487467,0.07778179095328029
-0.00097675,0.14378863385971674,0.0791438341904681
-0.0009765,0.14412425689466388,0.08084638823695303
-0.00097625,0.1474804872441354,0.081867920664844
-0.000976,0.14982984848876546,0.08220843147414099
-0.00097575,0.15083671759360814,0.08391098552062547
-0.0009755000000000001,0.1535217018731829,0.08288945309273542
-0.0009752500000000001,0.1541929479430781,0.0852730287578128
-0.0009750000000000001,0.15519981704791988,0.08663507199500184
-0.00097475,0.15654230918770848,0.08731609361359581
-0.0009745,0.15788480132749708,0.08697558280429882
-0.00097425,0.16090540864202188,0.08663507199500307
-0.0009739999999999999,0.16191227774686381,0.08935915846937897
-0.0009737500000000001,0.16392601595654488,0.0920832449437524
-0.0009735000000000001,0.16493288506138726,0.09412630979953557
-0.00097325,0.16661100023612302,0.10025550436688135
-0.000973,0.16896036148075308,0.09174273413445666
-0.00097275,0.17030285362054168,0.09242375575305063
-0.0009725,0.17063847665548929,0.09378579899023967
-0.0009722500000000001,0.1716453457603298,0.09616937465531641
-0.0009720000000000001,0.17399470700495928,0.09787192870180167
-0.0009717500000000001,0.17533719914474896,0.0961693746553175
-0.0009715,0.1763440682495904,0.09685039627391148
-0.00097125,0.17802218342432616,0.09821243951109943
-0.0009710000000000001,0.18003592163400908,0.09821243951109943
-0.00097075,0.18137841377379768,0.09923397193899039
-0.0009705,0.18372777501842774,0.10161754760406931
-0.00097025,0.18406339805337488,0.10297959084125727
-0.00097,0.1874196284028464,0.10400112326914823
-0.00096975,0.19044023571737076,0.1046821448877422
-0.0009695,0.19346084303189512,0.10672520974352413
-0.0009692500000000001,0.19379646606684228,0.10604418812493016
-0.000969,0.19446771213673658,0.10672520974352413
-0.00096875,0.19413208910178942,0.10672520974352413
-0.0009685000000000001,0.19413208910178942,0.1077467421714151
-0.00096825,0.19513895820663088,0.110470828645791
-0.000968,0.19715269641631378,0.11013031783649402
-0.0009677500000000001,0.2005089267657853,0.110470828645791
-0.0009675,0.20285828801041536,0.11183287188297895
-0.00096725,0.2031939110453625,0.11319491512016691
-0.000967,0.20420078015020396,0.11353542592946389
-0.00096675,0.20655014139483402,0.11353542592946389
-0.0009665,0.20621451835988686,0.11591900159454281
-0.00096625,0.20789263353462262,0.1162595124038398
-0.0009660000000000001,0.20990637174430554,0.11660002321313678
-0.00096575,0.2122557329889356,0.11796206645032474
-0.0009655,0.2149407172685128,0.11864308806891871
-0.0009652500000000001,0.2149407172685128,0.1217076853525916
-0.000965,0.21762570154809,0.12102666373399763
-0.00096475,0.21863257065293146,0.11489746916665185
-0.0009645000000000001,0.21762570154809,0.11864308806891871
-0.00096425,0.22064630886261438,0.12306972858977956
-0.000964,0.22333129314219158,0.12409126101767053
-0.00096375,0.22400253921208588,0.12443177182696752
-0.0009635000000000001,0.22500940831692734,0.12409126101767053
-0.00096325,0.22702314652661024,0.1247722826362645
-0.000963,0.22836563866639883,0.1274963691106404
-0.0009627500000000001,0.23037937687608176,0.1278368799199374
-0.0009625,0.23407123026050042,0.1281773907292344
-0.00096225,0.23373560722555328,0.12953943396642234
-0.0009620000000000001,0.23474247633039472,0.12953943396642234
-0.00096175,0.23574934543523618,0.1312419880129073
-0.0009615,0.23742746060997194,0.13192300963150125
-0.0009612500000000001,0.2411193139943906,0.13396607448728318
-0.000961,0.24212618309923206,0.13430658529658018
-0.00096075,0.24279742916912636,0.13566862853376813
-0.0009605,0.2431330522040735,0.1360091393430651
-0.0009602500000000001,0.24481116737880926,0.13566862853376813
-0.00096,0.24749615165838648,0.1363496501523621
-0.00095975,0.25118800504280514,0.13873322581744102
-0.0009595000000000001,0.2528661202175409,0.13839271500814404
-0.00095925,0.25219487414764663,0.139414247436035
-0.000959,0.25353736628743523,0.14043577986392597
-0.0009587500000000001,0.2542086123573295,0.1417978231011139
-0.0009585,0.2562223505670124,0.14281935552900488
-0.00095825,0.25722921967185386,0.14418139876619282
-0.000958,0.25957858091648395,0.1455434420033808
-0.00095775,0.26360605733584974,0.14894855009635066
-0.0009575,0.266291041615427,0.14860803928705368
-0.00095725,0.2676335337552156,0.14690548524056873
-0.0009570000000000001,0.26830477982510986,0.14656497443127176
-0.00095675,0.26696228768532126,0.1506511041428356
-0.0009565,0.2679691567901627,0.1506511041428356
-0.0009562500000000001,0.27065414106973995,0.15235365818932053
-0.000956,0.27333912534931715,0.15882336356596333
-0.00095575,0.2756884865939472,0.15303467980791452
-0.0009555000000000001,0.2777022248036301,0.15507774466369645
-0.00095525,0.27870909390847154,0.15473723385439947
-0.000955,0.27803784783857727,0.15473723385439947
-0.00095475,0.27938033997836587,0.15541825547299343
-0.0009545,0.2813940781880488,0.15814234194736934
-0.00095425,0.28340781639773166,0.15882336356596333
-0.000954,0.2854215546074146,0.15882336356596333
-0.0009537500000000001,0.28575717764236175,0.16086642842174526
-0.0009535,0.2860928006773089,0.16018540680315127
-0.00095325,0.28978465406172754,0.1598448959938543
-0.0009530000000000001,0.29079152316656903,0.1622284716589332
-0.00095275,0.2914627692364633,0.16086642842174526
-0.0009525,0.29347650744614623,0.16256898246823018
-0.0009522500000000001,0.295154622620882,0.16427153651471513
-0.000952,0.29683273779561775,0.1646120473240121
-0.00095175,0.29951772207519495,0.1646120473240121
-0.0009515,0.30220270635477214,0.16665511217979403
-0.0009512500000000001,0.30086021421498355,0.16835766622627898
-0.000951,0.3011958372499307,0.16869817703557596
-0.00095075,0.3032095754596136,0.16971970946346693
-0.0009505000000000001,0.3038808215295079,0.1704007310820609
-0.00095025,0.3052233136692965,0.1710817527006549
-0.00095,0.3079082979488737,0.1710817527006549
-0.0009497500000000001,0.30925079008866235,0.17142226350995188
-0.0009495,0.312942643473081,0.17210328512854586
-0.00094925,0.3149563816827639,0.1734653283657338
-0.0009490000000000001,0.3162988738225525,0.17448686079362477
-0.00094875,0.31697011989244683,0.1765299256494067
-0.0009485,0.31797698899728827,0.17857299050518863
-0.00094825,0.31730574292739394,0.17721094726800068
-0.0009480000000000001,0.31831261203223543,0.17687043645870368
-0.00094775,0.3213332193467598,0.17857299050518863
-0.0009475,0.32435382666128415,0.17278430674713982
-0.0009472500000000001,0.32435382666128415,0.17550839322151573
-0.000947,0.3277100570107556,0.1819780985981585
-0.00094675,0.3287169261155971,0.18299963102604946
-0.0009465000000000001,0.3300594182553857,0.18368065264464345
-0.00094625,0.3314019103951743,0.1853832066911284
-0.000946,0.33308002556991007,0.1853832066911284
-0.00094575,0.3340868946747515,0.18606422830972236
-0.0009455,0.3354293868145401,0.18674524992831634
-0.00094525,0.337443125024223,0.18708576073761332
-0.000945,0.3391212401989588,0.1877667823562073
-0.0009447500000000001,0.33945686323390595,0.18912882559339525
-0.0009445,0.3404637323387474,0.1908313796398802
-0.00094425,0.34281309358337747,0.1908313796398802
-0.0009440000000000001,0.3431487166183246,0.19185291206777116
-0.00094375,0.34449120875811323,0.19117189044917718
-0.0009435,0.34818306214253186,0.19355546611425611
-0.0009432500000000001,0.348518685177479,0.19491750935144406
-0.000943,0.3488543082124262,0.196279552588632
-0.00094275,0.3498611773172676,0.19730108501652296
-0.0009425,0.3542242767715806,0.19696057420722599
-0.00094225,0.35657363801621067,0.19866312825371094
-0.000942,0.35791613015599927,0.19866312825371094
-0.00094175,0.35925862229578787,0.20036568230019586
-0.0009415000000000001,0.3599298683656822,0.20036568230019586
-0.00094125,0.35925862229578787,0.20036568230019586
-0.000941,0.3616079835404179,0.1996846606816019
-0.0009407500000000001,0.363957344785048,0.20138721472808682
-0.0009405,0.36563545995978375,0.2020682363466808
-0.00094025,0.3673135751345195,0.20445181201175971
-0.0009400000000000001,0.3676491981694666,0.20479232282105672
-0.00093975,0.3693273133442024,0.20581385524894769
-0.0009395,0.37033418244904387,0.20717589848613563
-0.00093925,0.37100542851893814,0.20581385524894769
-0.0009390000000000001,0.37301916672862107,0.20853794172332357
-0.00093875,0.3726835436936739,0.21739122276504527
-0.0009385,0.3760397740431454,0.21262407143488743
-0.0009382500000000001,0.3777178892178812,0.21024049576980852
-0.000938,0.37939600439261695,0.2105810065791055
-0.00093775,0.38073849653240555,0.2105810065791055
-0.0009375000000000001,0.3824166117071413,0.21262407143488743
-0.00093725,0.38409472688187707,0.2139861146720754
-0.000937,0.38476597295177134,0.21466713629066936
-0.0009367500000000001,0.38476597295177134,0.21500764709996636
-0.0009365,0.3851015959867185,0.2170507119557483
-0.00093625,0.38812220330124286,0.21773173357434225
-0.000936,0.3887934493711372,0.21909377681153022
-0.0009357500000000001,0.3914784336507144,0.21875326600223322
-0.0009355,0.3934921718603973,0.21807224438363926
-0.00093525,0.39517028703513307,0.2194342876208272
-0.0009350000000000001,0.39718402524481594,0.22215837409520311
-0.00093475,0.39953338648944603,0.22045582004871817
-0.0009345,0.40322523987386466,0.2218178632859061
-0.0009342500000000001,0.4049033550486004,0.22352041733239106
-0.000934,0.40557460111849475,0.22624450380676697
-0.00093375,0.4052389780835476,0.22386092814168804
-0.0009335,0.406245847188389,0.225222971378876
-0.00093325,0.40893083146796627,0.22624450380676697
-0.000933,0.4099377005728077,0.22760654704395492
-0.00093275,0.41027332360775487,0.22930910109043987
-0.0009325000000000001,0.4099377005728077,0.22896859028114286
-0.00093225,0.41094456967764914,0.22999012270903382
-0.000932,0.41329393092227923,0.2306711443276278
-0.0009317500000000001,0.41665016127175075,0.23271420918340974
-0.0009315,0.41665016127175075,0.23305471999270672
-0.00093125,0.4159789152018564,0.23407625242059768
-0.0009310000000000001,0.41933514555132795,0.23475727403919167
-0.00093075,0.4203420146561694,0.2337357416113007
-0.0009305,0.4223557528658523,0.23475727403919167
-0.00093025,0.4250407371454295,0.2337357416113007
-0.00093,0.4273900983900596,0.2310116551369248
-0.00092975,0.42671885232016527,0.2368003388949736
-0.0009295,0.4277257214250067,0.24020544698794347
-0.0009292500000000001,0.4297394596346896,0.24020544698794347
-0.000929,0.4310819517744782,0.24020544698794347
-0.00092875,0.43208882087931966,0.24020544698794347
