Time (s),v_in (V),v_out (V)
-0.0010184999999999999,-0.11699046429421978,-0.009388976226748818
-0.0010182499999999998,-0.11598359518937694,-0.009388976226748353
-0.001018,-0.11296298787485533,-0.008367443798858318
-0.00101775,-0.11128487270011897,-0.008367443798857854
-0.0010175,-0.1106136266302239,-0.008026932989560864
-0.00101725,-0.10960675752538244,-0.007686422180263877
-0.001017,-0.10725739628075238,-0.008707954608154841
-0.0010167499999999999,-0.10759301931569908,-0.00870795460815453
-0.0010164999999999998,-0.10658615021085656,-0.008026932989560554
-0.00101625,-0.10322991986138809,-0.007345911370967198
-0.001016,-0.09987368951191505,-0.008026932989560864
-0.00101575,-0.1002093125468622,-0.007686422180263877
-0.0010155,-0.09920244344202075,-0.0070054005616699
-0.0010152499999999999,-0.0961818361274964,-0.007345911370966888
-0.0010149999999999998,-0.09349685184791827,-0.006664889752372757
-0.00101475,-0.09148311363823719,-0.006324378943076079
-0.0010145,-0.09215435970813027,-0.006664889752372758
-0.00101425,-0.09014062149844768,-0.0066648897523729125
-0.001014,-0.08812688328876477,-0.0070054005616699
-0.00101375,-0.08611314507908185,-0.006324378943075924
-0.0010134999999999999,-0.08510627597423903,-0.007005400561670519
-0.0010132499999999998,-0.08208566865971513,-0.008367443798856924
-0.001013,-0.08007193045003405,-0.006324378943076853
-0.00101275,-0.08074317651992713,-0.006324378943075924
-0.0010125,-0.07940068438013884,-0.0070054005616699
-0.00101225,-0.07570883099572016,-0.005983868133778936
-0.0010119999999999999,-0.0733594697510901,-0.005643357324481948
-0.0010117499999999998,-0.07134573154140736,-0.007005400561669281
-0.0010114999999999998,-0.07168135457635359,-0.005643357324482103
-0.00101125,-0.07000323940161936,-0.005983868133778781
-0.001011,-0.06866074726183,-0.006324378943075924
-0.00101075,-0.06832512422688285,-0.00530284651518496
-0.0010105,-0.06866074726183,-0.00530284651518496
-0.0010102499999999999,-0.06496889387740995,-0.005983868133778626
-0.0010099999999999998,-0.061948286562885896,-0.0053028465151848045
-0.00100975,-0.05959892531825797,-0.004962335705888126
-0.0010095,-0.059598925318256904,-0.004621824896591138
-0.00100925,-0.059263302283309754,-0.005643357324481948
-0.001009,-0.056578318003732544,-0.004962335705887971
-0.0010087499999999999,-0.0549002028289968,-0.003940803277997007
-0.0010084999999999998,-0.05523582586394257,-0.004281314087294151
-0.0010082499999999998,-0.05221521854941821,-0.004621824896591139
-0.001008,-0.0491946112348966,-0.004962335705887817
-0.00100775,-0.048858988199948064,-0.003940803277997007
-0.0010075,-0.048187742130053765,-0.004281314087293995
-0.00100725,-0.04650962695531802,-0.004621824896590984
-0.0010069999999999999,-0.045502757850476555,-0.004281314087293995
-0.0010067499999999998,-0.04516713481552895,-0.004281314087293995
-0.0010065,-0.044160265710688415,-0.004281314087293995
-0.00100625,-0.04080403536121796,-0.0036002924687003287
-0.001006,-0.036776558941850626,-0.0022382492315120668
-0.00100575,-0.034427197697220566,-0.0025787600408090547
-0.0010054999999999999,-0.034427197697220566,-0.0029192708501060427
-0.0010052499999999999,-0.033084705557431204,-0.0025787600408092096
-0.0010049999999999998,-0.03140659038269514,-0.0029192708501060427
-0.00100475,-0.029057229138067218,-0.0029192708501060427
-0.0010045,-0.027043490928383238,0.00014532643356685027
-0.00100425,-0.02670786789343609,-0.0025787600408090547
-0.001004,-0.023351637543964576,-0.0018977384222150784
-0.0010037499999999999,-0.022680391474070274,-0.0012167168036211022
-0.0010034999999999998,-0.020331030229439908,-0.0008762059943244237
-0.00100325,-0.01965978415954622,-0.0015572276129177808
-0.001003,-0.020331030229439908,-0.0018977384222149236
-0.00100275,-0.017981668984810156,-0.0018977384222150784
-0.0010025,-0.015296684705232946,-0.0015572276129180904
-0.0010022499999999999,-0.014961061670285795,-0.0015572276129180904
-0.0010019999999999999,-0.013954192565443273,-0.002578760040808745
-0.0010017499999999998,-0.011604831320813825,-0.0018977384222147687
-0.0010015,-0.010597962215973287,-0.0012167168036214119
-0.00100125,-0.007241731866501316,-0.00019518437573013786
-0.001001,-0.00556361669176556,-0.00019518437573013786
-0.00100075,-0.004221124551976955,-0.0008762059943241141
-0.0010004999999999999,-0.0032142554471355014,-0.000535695185027126
-0.0010002499999999998,-0.001871763307345828,-0.00019518437572982816
-0.001,0.00047759793728209413,0.00048583724286352874
-0.00099975,0.0004775979372831623,0.0004858372428638384
-0.0009995,0.0008132209722303135,0.0004858372428638384
-0.00099925,0.0031625822168603723,0.0011668588614578146
-0.0009989999999999999,0.006518812566331885,0.0011668588614578146
-0.0009987499999999999,0.0078613047061211,0.0008263480521611362
-0.0009984999999999998,0.009203796845909705,0.0015073696707549576
-0.00099825,0.010546288985697089,0.0018478804800516361
-0.000998,0.012224404160433456,0.0008263480521608265
-0.00099775,0.014573765405063515,-0.00019518437573013786
-0.0009975,0.01893686485937648,0.0004858372428638384
-0.0009972499999999999,0.01927248789432363,0.0004858372428638384
-0.0009969999999999998,0.021286226104006847,0.0011668588614579694
-0.00099675,0.021957472173900535,0.001507369670754648
-0.0009965,0.02464245645347683,0.0018478804800516361
-0.00099625,0.0243068334185309,0.0032099237172397432
-0.000996,0.025313702523372356,0.0015073696707548028
-0.0009957499999999999,0.02665619466316096,0.0004858372428638384
-0.0009954999999999999,0.02799868680294987,0.0018478804800514813
-0.0009952499999999998,0.028669932872845697,0.0011668588614581242
-0.000995,0.03269740929220785,0.0018478804800514813
-0.00099475,0.03370427839705113,0.0028694129079427553
-0.0009945,0.03303303232715683,0.0025289020986457673
-0.00099425,0.03571801660673404,0.002188391289348779
-0.0009939999999999999,0.0387386239212584,0.002188391289348779
-0.0009937499999999998,0.040752362130941924,0.002528902098646077
-0.0009935,0.0420948542707293,0.0032099237172394336
-0.00099325,0.04343734641051791,0.002528902098646077
-0.000993,0.04477983855030712,0.0035504345265367316
-0.00099275,0.045451084620201435,0.0042314561451307076
-0.0009925,0.04746482282988433,0.0042314561451307076
-0.0009922499999999999,0.0481360688997791,0.003550434526537196
-0.0009919999999999998,0.049142938004620704,0.004571966954427386
-0.00099175,0.050485430144408094,0.0038909453358340292
-0.0009915,0.051492299249250154,0.004912477763724684
-0.00099125,0.05451290656377451,0.004912477763724684
-0.000991,0.056526644773457424,0.005252988573021672
-0.0009907499999999999,0.05988287512292893,0.004571966954427696
-0.0009904999999999998,0.06189661333261215,0.0038909453358338744
-0.00099025,0.06256785940250584,0.004231456145130553
-0.00099,0.06290348243745314,0.004912477763724375
-0.00098975,0.0649172206471362,0.005252988573021672
-0.0009895,0.0642459745772419,0.004571966954427696
-0.00098925,0.06760220492671341,0.004912477763724684
-0.0009889999999999999,0.06995156617134378,0.005934010191615649
-0.0009887499999999998,0.07062281224123808,0.005934010191615339
-0.0009885,0.07129405831113177,0.0052529885730219815
-0.00098825,0.07330779652081407,0.0069555426195058384
-0.000988,0.07699964990523366,0.005934010191615649
-0.00098775,0.07699964990523366,0.006615031810209625
-0.0009874999999999999,0.0773352729401808,0.004912477763724684
-0.0009872499999999998,0.08069150328965247,0.005934010191616733
-0.0009869999999999998,0.08102712632460053,0.008317585856693946
-0.00098675,0.08337648756922846,0.006955542619507232
-0.0009865,0.08438335667407097,0.007636564238100589
-0.00098625,0.0884108330934368,0.005934010191615649
-0.000986,0.0890820791633311,0.006955542619506613
-0.0009857499999999999,0.0884108330934368,0.006615031810209625
-0.0009854999999999998,0.09076019433806701,0.006274521000912636
-0.00098525,0.09109581737301385,0.006274521000912636
-0.000985,0.093445178617643,0.007296053428803136
-0.00098475,0.09579453986227413,0.006955542619506613
-0.0009845,0.09814390110690417,0.007977075047397577
-0.0009842499999999999,0.09948639324669278,0.0072960534288036005
-0.0009839999999999998,0.10217137752627015,0.00831758585669503
-0.0009837499999999998,0.10250700056121867,0.009339118284585375
-0.0009835,0.10586323091068713,0.008998607475288696
-0.00098325,0.10720572305047726,0.008317585856694565
-0.000983,0.10854821519026586,0.007977075047397577
-0.00098275,0.10888383822521301,0.007977075047397577
-0.0009824999999999999,0.11056195339994877,0.00933911828458553
-0.0009822499999999998,0.11224006857468515,0.010020139903179352
-0.000982,0.11358256071447252,0.009679629093882673
-0.00098175,0.11593192195910212,0.008998607475288852
-0.0009815,0.11693879106394466,0.00933911828458553
-0.00098125,0.11828128320373325,0.010020139903179506
-0.0009809999999999999,0.12130189051825761,0.010701161521773483
-0.0009807499999999999,0.12264438265804607,0.008998607475288077
-0.0009804999999999998,0.12230875962309908,0.007977075047398351
-0.00098025,0.12230875962309908,0.009679629093881745
-0.00098,0.12566498997257056,0.011382183140367458
-0.00097975,0.12767872818225348,0.011382183140367458
-0.0009795,0.12834997425214778,0.00933911828458553
-0.0009792499999999999,0.13002808942688354,0.010020139903179506
-0.0009789999999999998,0.13271307370646118,0.010020139903179816
-0.00097875,0.13371994281130173,0.010701161521773174
-0.0009785,0.13573368102098418,0.011722693949663982
-0.00097825,0.13875428833550946,0.009679629093882518
-0.000978,0.14009678047529808,0.008317585856694565
-0.0009777499999999999,0.14043240351024522,0.010020139903179506
-0.0009774999999999999,0.1407680265451933,0.012403715568258268
-0.0009772499999999998,0.1427817647548765,0.01206320475896128
-0.000977,0.14546674903445128,0.011722693949664601
-0.00097675,0.1461379951043468,0.011382183140367458
-0.0009765,0.1494942254538183,0.010701161521773483
-0.00097625,0.15184358669844836,0.011382183140367458
-0.000976,0.15217920973339552,0.011382183140367458
-0.00097575,0.15217920973339627,0.01206320475896128
-0.0009755000000000001,0.15385732490813053,0.011722693949664601
-0.0009752500000000001,0.15553544008286627,0.01206320475896128
-0.0009750000000000001,0.15654230918770848,0.012744226377555411
-0.00097475,0.1585560473973914,0.012063204758961435
-0.0009745,0.16023416257212714,0.011722693949664447
-0.00097425,0.16056978560707552,0.012744226377555411
-0.0009739999999999999,0.1632547698866524,0.012744226377555257
-0.0009737500000000001,0.1652685080963335,0.012403715568258577
-0.0009735000000000001,0.16560413113128156,0.010701161521773483
-0.00097325,0.16627537720117586,0.012063204758961435
-0.000973,0.16929598451570024,0.013765758805446376
-0.00097275,0.17198096879527744,0.013084737186852399
-0.0009725,0.1709740996904378,0.013765758805446686
-0.0009722500000000001,0.17500157610979997,0.014446780424040042
-0.0009720000000000001,0.1776865603893778,0.014106269614743518
-0.0009717500000000001,0.17667969128453756,0.01444678042404035
-0.0009715,0.17835780645927332,0.01444678042404035
-0.00097125,0.17970029859906192,0.01478729123333734
-0.0009710000000000001,0.18104279073885052,0.014106269614743363
-0.00097075,0.18372777501842774,0.014106269614743363
-0.0009705,0.1860771362630578,0.013425247996149386
-0.00097025,0.18708400536789924,0.014106269614743363
-0.00097,0.1880908744727407,0.015468312851931315
-0.00096975,0.19211835089210652,0.015127802042634328
-0.0009695,0.19480333517168372,0.017511377707713244
-0.0009692500000000001,0.19446771213673658,0.015808823661228304
-0.000969,0.19547458124157802,0.01444678042404035
-0.00096875,0.19748831945126094,0.01478729123333734
-0.0009685000000000001,0.19782394248620808,0.015127802042634328
-0.00096825,0.19950205766094384,0.015468312851931315
-0.000968,0.199837680695891,0.015808823661228304
-0.0009677500000000001,0.2005089267657853,0.015468312851931315
-0.0009675,0.20084454980073244,0.015468312851931315
-0.00096725,0.2031939110453625,0.016149334470525294
-0.000967,0.20587889532493972,0.01648984527982228
-0.00096675,0.20789263353462262,0.015127802042634328
-0.0009665,0.20889950263946408,0.015468312851931315
-0.00096625,0.21124886388409414,0.01683035608911927
-0.0009660000000000001,0.2142694711986185,0.017170866898416258
-0.00096575,0.21594758637335426,0.017170866898416258
-0.0009655,0.21527634030345996,0.01648984527982228
-0.0009652500000000001,0.21762570154809,0.017511377707713244
-0.000965,0.22064630886261438,0.017851888517010233
-0.00096475,0.22266004707229728,0.017851888517010233
-0.0009645000000000001,0.22400253921208588,0.017851888517010233
-0.00096425,0.22400253921208588,0.017511377707713244
-0.000964,0.22400253921208588,0.016149334470525294
-0.00096375,0.22467378528198018,0.01648984527982228
-0.0009635000000000001,0.22769439259650454,0.017511377707713244
-0.00096325,0.22970813080618746,0.017170866898416258
-0.000963,0.23205749205081752,0.017511377707713244
-0.0009627500000000001,0.23474247633039472,0.018532910135604208
-0.0009625,0.23574934543523618,0.018873420944901197
-0.00096225,0.23709183757502478,0.017851888517010233
-0.0009620000000000001,0.23944119881965484,0.017851888517010233
-0.00096175,0.2411193139943906,0.018532910135604208
-0.0009615,0.2438042982739678,0.019554442563495172
-0.0009612500000000001,0.24481116737880926,0.01989495337279216
-0.000961,0.24481116737880926,0.019213931754198187
-0.00096075,0.24548241344870356,0.018873420944901197
-0.0009605,0.24548241344870356,0.01648984527982228
-0.0009602500000000001,0.24883864379817508,0.020575974991386137
-0.00096,0.24984551290301651,0.02023546418208915
-0.00095975,0.24883864379817508,0.02023546418208915
-0.0009595000000000001,0.25118800504280514,0.019213931754198187
-0.00095925,0.25320174325248807,0.01989495337279216
-0.000959,0.2542086123573295,0.01989495337279216
-0.0009587500000000001,0.2562223505670124,0.021256996609980115
-0.0009585,0.2589073348465896,0.019554442563495172
-0.00095825,0.261927942161114,0.019554442563495172
-0.000958,0.26226356519606114,0.01989495337279216
-0.00095775,0.26293481126595547,0.01989495337279216
-0.0009575,0.26494854947563834,0.020575974991386137
-0.00095725,0.26729791072026843,0.021256996609980115
-0.0009570000000000001,0.26931164892995135,0.020916485800683126
-0.00095675,0.2699828949998456,0.02227852903787108
-0.0009565,0.27098976410468706,0.02227852903787108
-0.0009562500000000001,0.2740103714192115,0.02227852903787108
-0.000956,0.2743459944541586,0.021256996609980115
-0.00095575,0.27669535569878867,0.020916485800683126
-0.0009555000000000001,0.27703097873373583,0.021256996609980115
-0.00095525,0.2777022248036301,0.02227852903787108
-0.000955,0.2800515860482602,0.02227852903787108
-0.00095475,0.28206532425794306,0.022959550656465055
-0.0009545,0.2837434394326788,0.022619039847168065
-0.00095425,0.2837434394326788,0.02193801822857409
-0.000954,0.284079062467626,0.02193801822857409
-0.0009537500000000001,0.2850859315724674,0.020916485800683126
-0.0009535,0.2874352928170975,0.02193801822857409
-0.00095325,0.29045590013162187,0.02364057227505903
-0.0009530000000000001,0.2928052613762519,0.022619039847168065
-0.00095275,0.2948189995859348,0.022619039847168065
-0.0009525,0.29716836083056486,0.023300061465762044
-0.0009522500000000001,0.2978396069004592,0.022959550656465055
-0.000952,0.29951772207519495,0.022959550656465055
-0.00095175,0.3005245911800364,0.025343126321543973
-0.0009515,0.3005245911800364,0.02364057227505903
-0.0009512500000000001,0.30220270635477214,0.02398108308435602
-0.000951,0.30488769063434934,0.024662104702949994
-0.00095075,0.30555893670424367,0.024662104702949994
-0.0009505000000000001,0.30690142884403226,0.02398108308435602
-0.00095025,0.30958641312360946,0.024662104702949994
-0.00095,0.3112645282983452,0.024321593893653008
-0.0009497500000000001,0.3112645282983452,0.025002615512246983
-0.0009495,0.3126070204381338,0.02398108308435602
-0.00094925,0.31462075864781675,0.024321593893653008
-0.0009490000000000001,0.3156276277526582,0.025343126321543973
-0.00094875,0.31864823506718254,0.024321593893653008
-0.0009485,0.3199907272069712,0.02364057227505903
-0.00094825,0.3223400884516012,0.02398108308435602
-0.0009480000000000001,0.3216688423817069,0.024321593893653008
-0.00094775,0.32334695755644266,0.024662104702949994
-0.0009475,0.32468944969623126,0.025002615512246983
-0.0009472500000000001,0.3260319418360199,0.025002615512246983
-0.000947,0.32838130308064994,0.026024147940137948
-0.00094675,0.32972379522043854,0.026364658749434937
-0.0009465000000000001,0.33039504129033287,0.02568363713084096
-0.00094625,0.3337512716398044,0.026364658749434937
-0.000946,0.3347581407446458,0.026705169558731923
-0.00094575,0.3347581407446458,0.02568363713084096
-0.0009455,0.3361006328844344,0.025343126321543973
-0.00094525,0.33677187895432875,0.02568363713084096
-0.000945,0.3401281093038002,0.027045680368028912
-0.0009447500000000001,0.3424774705484303,0.0273861911773259
-0.0009445,0.3438199626882189,0.026705169558731923
-0.00094425,0.34549807786295467,0.026364658749434937
-0.0009440000000000001,0.34684057000274326,0.026705169558731923
-0.00094375,0.3478474391075847,0.0273861911773259
-0.0009435,0.3475118160726376,0.0273861911773259
-0.0009432500000000001,0.3501968003522148,0.0273861911773259
-0.000943,0.35187491552695055,0.02568363713084096
-0.00094275,0.352881784631792,0.028407723605216866
-0.0009425,0.35455989980652775,0.02942925603310783
-0.00094225,0.35791613015599927,0.02908874522381084
-0.000942,0.3602654914006293,0.02908874522381084
-0.00094175,0.3602654914006293,0.027726701986622887
-0.0009415000000000001,0.3609367374705236,0.028067212795919876
-0.00094125,0.36194360657536506,0.0273861911773259
-0.000941,0.3652998369248366,0.027726701986622887
-0.0009407500000000001,0.3659710829947309,0.02874823441451385
-0.0009405,0.3659710829947309,0.028407723605216866
-0.00094025,0.36832044423936094,0.028067212795919876
-0.0009400000000000001,0.36832044423936094,0.027726701986622887
-0.00093975,0.3693273133442024,0.02874823441451385
-0.0009395,0.3713410515538853,0.029769766842404816
-0.00093925,0.37436165886840966,0.03147232088888976
-0.0009390000000000001,0.37335478976356823,0.03079129927029578
-0.00093875,0.3760397740431454,0.030110277651701805
-0.0009385,0.3777178892178812,0.02874823441451385
-0.0009382500000000001,0.3790603813576698,0.028067212795919876
-0.000938,0.3804028734974584,0.028407723605216866
-0.00093775,0.381745365637247,0.02908874522381084
-0.0009375000000000001,0.38342348081198274,0.02942925603310783
-0.00093725,0.3864440881265071,0.03113181007959277
-0.000937,0.3877865802662957,0.030450788460998794
-0.0009367500000000001,0.3901359415109258,0.03147232088888976
-0.0009365,0.39080718758082006,0.029769766842404816
-0.00093625,0.39315654882545015,0.03113181007959277
-0.000936,0.3941634179302916,0.03147232088888976
-0.0009357500000000001,0.3941634179302916,0.030450788460998794
-0.0009355,0.39517028703513307,0.03079129927029578
-0.00093525,0.39651277917492167,0.03079129927029578
-0.0009350000000000001,0.3968484022098688,0.03079129927029578
-0.00093475,0.39852651738460454,0.030110277651701805
-0.0009345,0.4012115016641818,0.03113181007959277
-0.0009342500000000001,0.40423210897870615,0.03283436412607771
-0.000934,0.4052389780835476,0.030110277651701805
-0.00093375,0.4059102241534419,0.031812831698186744
-0.0009335,0.406245847188389,0.03249385331678072
-0.00093325,0.40825958539807194,0.031812831698186744
-0.000933,0.41094456967764914,0.03079129927029578
-0.00093275,0.41228706181743774,0.03147232088888976
-0.0009325000000000001,0.41430080002712066,0.03113181007959277
-0.00093225,0.4159789152018564,0.03147232088888976
-0.000932,0.414972046097015,0.03351538574467169
-0.0009317500000000001,0.4163145382368036,0.03215334250748374
-0.0009315,0.4196707685862751,0.0331748749353747
-0.00093125,0.42067763769111655,0.0331748749353747
-0.0009310000000000001,0.421684506795958,0.0331748749353747
-0.00093075,0.421684506795958,0.034196407363265666
-0.0009305,0.42269137590079947,0.03351538574467169
-0.00093025,0.42571198321532383,0.03249385331678072
-0.00093,0.42705447535511243,0.03283436412607771
