#Digilent WaveForms Network Analyzer - Bode
#Device Name: Discovery2
#Serial Number: SN:210321B80BF5
#Date Time: 2026-02-04 18:02:07.278
#Start: 1 Hz
#Stop: 1000 Hz
#Steps: 151
#Wavegen: Wavegen C1
#Amplification: 1 X
#Settle: 10 ms
#MinPeriods: 16 
#Channel: Channel 1
#Range: 5.46618 V
#Offset: -7.13091e-05 V
#Relative: no
#Channel: Channel 2
#Range: 5.4682 V
#Offset: -6.92119e-05 V
#Relative: yes

Frequency (Hz),Channel 1 Magnitude (dB),Channel 2 Magnitude (dB),Channel 2 Phase (deg)
1.000000000000001,-0.004193846069126974,0.02155652160082671,-0.305860624533139
1.047128548050901,-0.004755849150872534,0.02388339277223567,-0.3185041964822517
1.096478196143186,-0.005548128085834858,0.02613685576600689,-0.3231352847058631
1.148153621496884,-0.005259783609477896,0.0260874816976,-0.3296214212853386
1.202264434617413,-0.00622830005338481,0.02803211620693479,-0.3771169223866799
1.258925411794169,-0.00745449155670014,0.03250255555374242,-0.379571771030955
1.318256738556409,-0.005032730441125619,0.03452282212723443,-0.3995150511496617
1.380384264602885,-0.005033252524204142,0.0341576634866667,-0.4130925094962059
1.445439770745929,-0.005309642315668528,0.03883597102573194,-0.4276114209752961
1.51356124843621,-0.007368695063486083,0.04413803032991739,-0.4514777499909073
1.584893192461114,-0.00445279764858454,0.04606214997105135,-0.4652574895054897
1.659586907437563,-0.005103484482026911,0.05084011664732531,-0.4983059877744012
1.737800828749376,-0.006415404799300375,0.05658985855444305,-0.5319361786959007
1.819700858609984,-0.007609646505273165,0.0608094194828555,-0.5487309286140487
1.90546071796325,-0.006749951359828497,0.06547653493279509,-0.5772626224556916
1.995262314968881,-0.007553481938933158,0.07343633623117013,-0.6032844933263277
2.089296130854041,-0.006476857061783161,0.07669989819485984,-0.6389783833050444
2.187761623949554,-0.006427326340345775,0.08430019250625163,-0.6594439040858617
2.290867652767774,-0.00649114673212282,0.09350069323117106,-0.6916635785384244
2.398832919019493,-0.006813893712506618,0.09973125184811109,-0.7430338911804881
2.511886431509582,-0.007890206337431793,0.1115477125137472,-0.7646615652278328
2.630267991895384,-0.00617769281354727,0.1198467668277988,-0.8002727735723951
2.754228703338169,-0.008036984955290379,0.1324661470267049,-0.8470996322658362
2.884031503126609,-0.009627446276797482,0.1461005381782191,-0.8924348528786972
3.019951720402019,-0.008493254139535659,0.1603368690164802,-0.9182268429798199
3.162277660168383,-0.006804999347480816,0.1710476893410914,-0.9642702108111791
3.311311214825914,-0.00783546407490709,0.1903040802820757,-1.031959057731342
3.467368504525317,-0.008773898563245671,0.2095569742245906,-1.091096984251323
3.630780547701018,-0.009768127277443002,0.2308782744298815,-1.153979107943712
3.801893963205617,-0.009696403811361652,0.2509388608891306,-1.208863555241876
3.981071705534974,-0.009648872260992638,0.2753636173682205,-1.274787145860444
4.16869383470336,-0.009611414018496019,0.3039661073861896,-1.36379660022471
4.365158322401665,-0.01071031814681733,0.3344470912202741,-1.424778910920053
4.570881896148753,-0.01028840467428844,0.3682324099417185,-1.514376862993842
4.786300923226389,-0.01166080161528057,0.4036619513359397,-1.604299925979106
5.01187233627273,-0.01271247781540781,0.4460352516865187,-1.681586203440958
5.248074602497728,-0.01408592156866879,0.4920018897102117,-1.78710021715392
5.495408738576254,-0.01499695829370088,0.5427235082131475,-1.897149449773437
5.754399373371577,-0.01646328189409952,0.5968857430941567,-2.03240312323112
6.02559586074358,-0.01611724513246689,0.658711091047945,-2.158682127743223
6.309573444801936,-0.01701979763736098,0.7305174871553999,-2.310712287927089
6.606934480075965,-0.01967916099193549,0.8072032299189347,-2.459954925667404
6.918309709189369,-0.02144847872735896,0.8934389287267773,-2.639482120978073
7.244359600749906,-0.02300777088508751,0.9897615438519161,-2.856314034117403
7.585775750291844,-0.02351097403732354,1.096491165136146,-3.074897173685416
7.943282347242821,-0.02557274377120753,1.213399963347837,-3.307977231610394
8.317637711026718,-0.02984654569590641,1.347767025417141,-3.599934533100992
8.709635899560816,-0.03099325006684568,1.496904572116209,-3.900712053569393
9.120108393559105,-0.03565013216590446,1.667873343541117,-4.268119824304801
9.549925860214369,-0.03945734108825739,1.859268094420108,-4.672866619669279
10,-0.0457481179157752,2.078450298840004,-5.176548904575185
10.47128548050901,-0.05155563669217657,2.327714819566151,-5.750910172404943
10.96478196143186,-0.06068925283769896,2.616130049749889,-6.441153515518579
11.48153621496883,-0.07050827080960223,2.944987824485721,-7.312098293383031
12.02264434617414,-0.0830249351595192,3.329803169003626,-8.387063301190565
12.58925411794168,-0.1009766780412279,3.776779078120661,-9.7639103180046
13.18256738556408,-0.1254050839628222,4.304407207594124,-11.57714646440374
13.80384264602886,-0.1615030306412004,4.916266282087404,-13.9875697169513
14.45439770745929,-0.2136673751238092,5.611378387685426,-17.16117324944484
15.13561248436209,-0.281056413482461,6.356454231832471,-21.15923169955714
15.84893192461115,-0.3746897020466938,7.095123606793315,-25.84328143443278
16.59586907437562,-0.4803231121170934,7.775162184269423,-30.89644178728305
17.37800828749376,-0.5989643131280257,8.385912775683297,-36.1047638972545
18.19700858609984,-0.7273435982782485,8.926783410133069,-41.46690199912977
19.05460717963249,-0.8690753841681116,9.404177747416682,-47.17034626922178
19.95262314968881,-1.016121693290835,9.813981763568613,-53.52491518009727
20.8929613085404,-1.167298923071805,10.14066952895721,-61.02784515601456
21.87761623949554,-1.315351719540854,10.34716742455126,-70.48630536119421
22.90867652767775,-1.401521333876176,10.27604546864577,-83.75729320330878
23.98832919019491,-1.11403551570858,8.651666849781874,-112.1529561918688
25.11886431509582,-0.4758587274605527,3.712911257755389,-138.9249238607654
26.30267991895384,-0.3588756952676184,2.037526556849574,-145.0277416379778
27.54228703338168,-0.2820714706885057,0.6336394038487856,-149.2317054446451
28.84031503126609,-0.2300099072013276,-0.6284924880904723,-152.4510320330888
30.19951720402019,-0.1888543741081297,-1.812352078961931,-155.0301613019013
31.62277660168381,-0.1584892468902059,-2.936985754811001,-157.1527102466316
33.11311214825913,-0.1354076928586255,-4.023482027393682,-158.9100350329098
34.67368504525317,-0.1159858174645364,-5.076488447205253,-160.3959265221699
36.30780547701016,-0.09933990153280557,-6.099351570140255,-161.6677663656013
38.01893963205612,-0.08774241039331533,-7.098578087596067,-162.7041038792176
39.81071705534973,-0.07945383915180901,-8.078998528294118,-163.6098319672464
41.68693834703357,-0.06975540450191964,-9.037810526811406,-164.3651635334529
43.65158322401661,-0.06324062224737255,-9.981832440787933,-165.0458523757538
45.70881896148752,-0.05786167389024176,-10.91548568491002,-165.6056656717168
47.86300923226388,-0.05119219168463844,-11.82699844767687,-166.0810890617908
50.11872336272724,-0.04946349859659042,-12.73334676590961,-166.4927306769012
52.48074602497729,-0.0475400894241796,-13.61984870198786,-166.8900027463469
54.95408738576246,-0.04407230785882413,-14.49907170327005,-167.1826403247557
57.54399373371572,-0.04269102767178429,-15.37250003143154,-167.4159767498241
60.25595860743581,-0.040994083110076,-16.21481847454303,-167.6337169223815
63.09573444801933,-0.04009737344246828,-17.0863557235523,-167.812280246716
66.06934480075964,-0.04066541752438292,-17.92175261013291,-167.9189350144633
69.18309709189366,-0.04133917406361164,-18.77620418268249,-168.0439920292486
72.44359600749902,-0.04066880606132899,-19.60249961321488,-168.2068446238162
75.85775750291845,-0.04201862970035088,-20.43184112037823,-168.3022940477056
79.43282347242818,-0.04202858781795497,-21.26412901676143,-168.3862337886483
83.17637711026713,-0.04490690648541394,-22.07896820525796,-168.2416781711007
87.09635899560806,-0.046390806883077,-22.87044899863551,-168.3088730208322
91.20108393559102,-0.04784006898675756,-23.72497522171935,-168.2605738546221
95.49925860214364,-0.05095127879106395,-24.48782747906965,-168.223940859088
100,-0.05195014144453972,-25.31940972873847,-168.4866155429769
104.71285480509,-0.05599528932454475,-26.12983166946002,-168.087596420103
109.6478196143186,-0.05662045548563164,-26.9212390467011,-168.1541331896723
114.8153621496883,-0.06254378259331543,-27.70733320180818,-167.8586129282289
120.2264434617413,-0.06413458131215841,-28.53686371313142,-167.8897051751337
125.8925411794167,-0.06994354247585456,-29.31879296444603,-167.9308802678845
131.8256738556407,-0.07600008744221207,-30.10043691583619,-168.3289260532817
138.0384264602885,-0.0813628563391228,-30.90720436435472,-167.4093468841861
144.5439770745928,-0.08883954365983499,-31.77593972345785,-167.681794650598
151.3561248436209,-0.0922055964125247,-32.49070788931854,-168.0343273024451
158.4893192461113,-0.1014896095334105,-33.35703927773436,-168.4257223814108
165.9586907437561,-0.1080430978021172,-34.23723926218005,-168.8819275669604
173.7800828749376,-0.119064899750293,-35.07367885096053,-167.5402991111063
181.9700858609984,-0.1271790039545178,-35.83988154219877,-168.952383735351
190.5460717963248,-0.1382791863797168,-36.88367707178617,-168.3524706686711
199.5262314968881,-0.1495366597222938,-37.60420288655085,-169.1562352400892
208.929613085404,-0.1611290090370389,-38.53774745837482,-169.6677306061782
218.7761623949553,-0.1734315922352494,-39.25469071700375,-170.2611569962271
229.0867652767773,-0.1874204866783145,-40.20183289253182,-170.9443134811137
239.8832919019491,-0.2036512534308015,-41.35118245284804,-172.5340534075397
251.1886431509582,-0.2193534938810633,-42.14986730502766,-173.4525597848873
263.0267991895382,-0.2397970182210319,-43.33566078697474,-175.1463867235107
275.4228703338167,-0.2617653230897264,-43.89054315914993,-176.9257053990892
288.4031503126606,-0.2827517515180897,-45.14402968012963,-176.9874719444416
301.9951720402017,-0.3038197501609447,-46.21762691363082,178.3230010245603
316.2277660168381,-0.3309284771812707,-47.47382523771844,174.126041626828
331.131121482591,-0.3569077831628861,-48.72639227518949,172.2080991190332
346.7368504525317,-0.385629548059339,-49.48400525654858,166.5905612187021
363.0780547701015,-0.4204040838183892,-50.38336535981989,159.4161168150751
380.1893963205612,-0.4551800303521348,-51.45072777962297,147.2684897679275
398.1071705534974,-0.4897676571454253,-51.68990467399414,140.6940501242449
416.8693834703354,-0.5306603156656536,-51.96609659033007,126.7520413308046
436.515832240166,-0.57485909473345,-52.2224814505219,123.3821167572869
457.0881896148753,-0.6190297861640418,-51.65815618757955,112.6541593211128
478.6300923226383,-0.6724867136435987,-50.92640081751422,100.5662198463698
501.1872336272725,-0.7265073803097022,-51.36511298610283,89.44209893421282
524.8074602497726,-0.7865991344420447,-50.21539996660259,83.27262909137823
549.5408738576247,-0.8552322379769274,-50.44464498666036,83.7742982904075
575.4399373371572,-0.926828628115022,-48.64246581058293,77.28010473381391
602.5595860743576,-0.9989098811018513,-48.33837077303036,77.16226401814586
630.9573444801933,-1.082832715885857,-47.97011170754637,77.19651086224641
660.6934480075957,-1.168436631517056,-46.68414040909913,70.55123404895592
691.8309709189365,-1.259536421473556,-46.55961282508724,66.68538211339359
724.4359600749902,-1.357240544504006,-45.89782035578395,67.67148430862414
758.5775750291837,-1.458600873048181,-45.70236572323413,65.98443909079305
794.3282347242816,-1.566726336234689,-44.5211859099431,63.24601662171712
831.7637711026713,-1.673504434943691,-44.92322348837729,62.33357521582327
870.9635899560806,-1.792817518702728,-43.64971762285692,57.72492144072817
912.0108393559099,-1.91412634431797,-43.59981455777408,58.92683307916857
954.9925860214356,-2.034166979285035,-43.50130167756244,59.30946911688191
1000,-2.163221622195919,-42.50796628879261,56.765614105592
